HEADER
"PSFversion" "1.00"
"BINPSF creation time" "1484204601"
"simulator" "spectre"
"version" "15.1.0.644.isr13"
"date" "11:03:23 PM, Wed Jan 11, 2017"
"design" "// Generated for: spectre"
"analysis type" "ac"
"analysis name" "ac"
"analysis description" "AC Analysis `ac': freq = (10 kHz -> 100 GHz)"
"xVecSorted" "ascending"
"tolerance.relative" 0.00100000
"start" 10000.0
"stop" 1.00000e+11
"operating point producer" "ac"
TYPE
"sweep" FLOAT DOUBLE PROP(
"key" "sweep"
)
"V" COMPLEX DOUBLE PROP(
"units" "V"
"key" "node"
"tolerance" 1.00000e-06
)
"I" COMPLEX DOUBLE PROP(
"units" "A"
"key" "branch"
"tolerance" 1.00000e-12
)
"MMF" COMPLEX DOUBLE PROP(
"units" "A*turn"
"key" "node"
"tolerance" 1.00000e-12
)
"Wb" COMPLEX DOUBLE PROP(
"units" "Wb"
"key" "node"
"tolerance" 1.00000e-09
)
"Temp" COMPLEX DOUBLE PROP(
"units" "C"
"key" "node"
"tolerance" 0.000100000
)
"Pwr" COMPLEX DOUBLE PROP(
"units" "W"
"key" "node"
"tolerance" 1.00000e-09
)
"U" COMPLEX DOUBLE PROP(
"units" ""
"key" "node"
"tolerance" 1.00000e-06
)
"V/Sec" COMPLEX DOUBLE PROP(
"units" "V/s"
"key" "node"
"tolerance" 0.000100000
)
"I/Sec" COMPLEX DOUBLE PROP(
"units" "A/s"
"key" "node"
"tolerance" 1.00000e-06
)
"1/Sec" COMPLEX DOUBLE PROP(
"units" "1/s"
"key" "node"
"tolerance" 0.000100000
)
"HOD" COMPLEX DOUBLE PROP(
"units" ""
"key" "node"
"tolerance" 0.0100000
)
"Q" COMPLEX DOUBLE PROP(
"units" "Coul"
"key" "node"
"tolerance" 1.00000e-15
)
SWEEP
"freq" "sweep" PROP(
"sweep_direction" 0
"units" "Hz"
"plot" 0
"grid" 3
)
TRACE
"vo1" "V"
"vo2" "V"
"vin" "V"
"V0:p" "I"
VALUE
"freq" 10000.0
"vo1" (0.666667 -3.49066e-05)
"vo2" (0.333333 -2.79253e-05)
"vin" (1.00000 0.00000)
"V0:p" (-0.000333333 -3.49066e-08)
"freq" 13803.8
"vo1" (0.666667 -4.81845e-05)
"vo2" (0.333333 -3.85476e-05)
"vin" (1.00000 0.00000)
"V0:p" (-0.000333333 -4.81845e-08)
"freq" 19054.6
"vo1" (0.666667 -6.65131e-05)
"vo2" (0.333333 -5.32105e-05)
"vin" (1.00000 0.00000)
"V0:p" (-0.000333333 -6.65131e-08)
"freq" 26302.7
"vo1" (0.666667 -9.18137e-05)
"vo2" (0.333333 -7.34509e-05)
"vin" (1.00000 0.00000)
"V0:p" (-0.000333333 -9.18137e-08)
"freq" 36307.8
"vo1" (0.666667 -0.000126738)
"vo2" (0.333333 -0.000101391)
"vin" (1.00000 0.00000)
"V0:p" (-0.000333333 -1.26738e-07)
"freq" 50118.7
"vo1" (0.666667 -0.000174947)
"vo2" (0.333333 -0.000139958)
"vin" (1.00000 0.00000)
"V0:p" (-0.000333333 -1.74947e-07)
"freq" 69183.1
"vo1" (0.666667 -0.000241495)
"vo2" (0.333333 -0.000193196)
"vin" (1.00000 0.00000)
"V0:p" (-0.000333333 -2.41495e-07)
"freq" 95499.3
"vo1" (0.666666 -0.000333355)
"vo2" (0.333333 -0.000266684)
"vin" (1.00000 0.00000)
"V0:p" (-0.000333334 -3.33355e-07)
"freq" 131826.
"vo1" (0.666666 -0.000460158)
"vo2" (0.333333 -0.000368126)
"vin" (1.00000 0.00000)
"V0:p" (-0.000333334 -4.60158e-07)
"freq" 181970.
"vo1" (0.666666 -0.000635195)
"vo2" (0.333333 -0.000508156)
"vin" (1.00000 0.00000)
"V0:p" (-0.000333334 -6.35195e-07)
"freq" 251189.
"vo1" (0.666665 -0.000876812)
"vo2" (0.333332 -0.000701449)
"vin" (1.00000 0.00000)
"V0:p" (-0.000333335 -8.76812e-07)
"freq" 346737.
"vo1" (0.666664 -0.00121033)
"vo2" (0.333331 -0.000968267)
"vin" (1.00000 0.00000)
"V0:p" (-0.000333336 -1.21033e-06)
"freq" 478630.
"vo1" (0.666662 -0.00167072)
"vo2" (0.333329 -0.00133657)
"vin" (1.00000 0.00000)
"V0:p" (-0.000333338 -1.67072e-06)
"freq" 660693.
"vo1" (0.666658 -0.00230622)
"vo2" (0.333325 -0.00184497)
"vin" (1.00000 0.00000)
"V0:p" (-0.000333342 -2.30622e-06)
"freq" 912011.
"vo1" (0.666650 -0.00318342)
"vo2" (0.333318 -0.00254672)
"vin" (1.00000 0.00000)
"V0:p" (-0.000333350 -3.18342e-06)
"freq" 1.25893e+06
"vo1" (0.666634 -0.00439423)
"vo2" (0.333303 -0.00351534)
"vin" (1.00000 0.00000)
"V0:p" (-0.000333366 -4.39423e-06)
"freq" 1.73780e+06
"vo1" (0.666605 -0.00606541)
"vo2" (0.333276 -0.00485221)
"vin" (1.00000 0.00000)
"V0:p" (-0.000333395 -6.06541e-06)
"freq" 2.39883e+06
"vo1" (0.666549 -0.00837177)
"vo2" (0.333224 -0.00669711)
"vin" (1.00000 0.00000)
"V0:p" (-0.000333451 -8.37177e-06)
"freq" 3.31131e+06
"vo1" (0.666442 -0.0115541)
"vo2" (0.333125 -0.00924248)
"vin" (1.00000 0.00000)
"V0:p" (-0.000333558 -1.15541e-05)
"freq" 4.57088e+06
"vo1" (0.666239 -0.0159434)
"vo2" (0.332937 -0.0127526)
"vin" (1.00000 0.00000)
"V0:p" (-0.000333761 -1.59434e-05)
"freq" 6.30957e+06
"vo1" (0.665853 -0.0219931)
"vo2" (0.332578 -0.0175889)
"vin" (1.00000 0.00000)
"V0:p" (-0.000334147 -2.19931e-05)
"freq" 8.70964e+06
"vo1" (0.665118 -0.0303197)
"vo2" (0.331896 -0.0242412)
"vin" (1.00000 0.00000)
"V0:p" (-0.000334882 -3.03197e-05)
"freq" 1.20226e+07
"vo1" (0.663724 -0.0417500)
"vo2" (0.330602 -0.0333619)
"vin" (1.00000 0.00000)
"V0:p" (-0.000336276 -4.17500e-05)
"freq" 1.65959e+07
"vo1" (0.661087 -0.0573627)
"vo2" (0.328156 -0.0457906)
"vin" (1.00000 0.00000)
"V0:p" (-0.000338913 -5.73627e-05)
"freq" 2.29087e+07
"vo1" (0.656135 -0.0784872)
"vo2" (0.323567 -0.0625306)
"vin" (1.00000 0.00000)
"V0:p" (-0.000343865 -7.84872e-05)
"freq" 3.16228e+07
"vo1" (0.646949 -0.106563)
"vo2" (0.315072 -0.0845826)
"vin" (1.00000 0.00000)
"V0:p" (-0.000353051 -0.000106563)
"freq" 4.36516e+07
"vo1" (0.630304 -0.142652)
"vo2" (0.299734 -0.112430)
"vin" (1.00000 0.00000)
"V0:p" (-0.000369696 -0.000142652)
"freq" 6.02560e+07
"vo1" (0.601370 -0.186271)
"vo2" (0.273262 -0.144864)
"vin" (1.00000 0.00000)
"V0:p" (-0.000398630 -0.000186271)
"freq" 8.31764e+07
"vo1" (0.554493 -0.233427)
"vo2" (0.230977 -0.177069)
"vin" (1.00000 0.00000)
"V0:p" (-0.000445507 -0.000233427)
"freq" 1.14815e+08
"vo1" (0.486411 -0.275125)
"vo2" (0.171299 -0.199351)
"vin" (1.00000 0.00000)
"V0:p" (-0.000513589 -0.000275125)
"freq" 1.58489e+08
"vo1" (0.401173 -0.299830)
"vo2" (0.100922 -0.200165)
"vin" (1.00000 0.00000)
"V0:p" (-0.000598827 -0.000299830)
"freq" 2.18776e+08
"vo1" (0.310784 -0.300975)
"vo2" (0.0352903 -0.174743)
"vin" (1.00000 0.00000)
"V0:p" (-0.000689216 -0.000300975)
"freq" 3.01995e+08
"vo1" (0.227728 -0.281522)
"vo2" (-0.0103587 -0.130933)
"vin" (1.00000 0.00000)
"V0:p" (-0.000772272 -0.000281522)
"freq" 4.16869e+08
"vo1" (0.158183 -0.249180)
"vo2" (-0.0309655 -0.0840364)
"vin" (1.00000 0.00000)
"V0:p" (-0.000841817 -0.000249180)
"freq" 5.75440e+08
"vo1" (0.103488 -0.210365)
"vo2" (-0.0324276 -0.0465603)
"vin" (1.00000 0.00000)
"V0:p" (-0.000896512 -0.000210365)
"freq" 7.94328e+08
"vo1" (0.0635340 -0.169908)
"vo2" (-0.0249376 -0.0227231)
"vin" (1.00000 0.00000)
"V0:p" (-0.000936466 -0.000169908)
"freq" 1.09648e+09
"vo1" (0.0368829 -0.132085)
"vo2" (-0.0162488 -0.0100706)
"vin" (1.00000 0.00000)
"V0:p" (-0.000963117 -0.000132085)
"freq" 1.51356e+09
"vo1" (0.0205526 -0.0998191)
"vo2" (-0.00961642 -0.00418354)
"vin" (1.00000 0.00000)
"V0:p" (-0.000979447 -9.98191e-05)
"freq" 2.08930e+09
"vo1" (0.0111569 -0.0740662)
"vo2" (-0.00538755 -0.00167070)
"vin" (1.00000 0.00000)
"V0:p" (-0.000988843 -7.40662e-05)
"freq" 2.88403e+09
"vo1" (0.00596426 -0.0543650)
"vo2" (-0.00292813 -0.000652314)
"vin" (1.00000 0.00000)
"V0:p" (-0.000994036 -5.43650e-05)
"freq" 3.98107e+09
"vo1" (0.00316120 -0.0396626)
"vo2" (-0.00156551 -0.000251550)
"vin" (1.00000 0.00000)
"V0:p" (-0.000996839 -3.96626e-05)
"freq" 5.49541e+09
"vo1" (0.00166775 -0.0288408)
"vo2" (-0.000829690 -9.63585e-05)
"vin" (1.00000 0.00000)
"V0:p" (-0.000998332 -2.88408e-05)
"freq" 7.58578e+09
"vo1" (0.000877678 -0.0209347)
"vo2" (-0.000437681 -3.67800e-05)
"vin" (1.00000 0.00000)
"V0:p" (-0.000999122 -2.09347e-05)
"freq" 1.04713e+10
"vo1" (0.000461284 -0.0151817)
"vo2" (-0.000230323 -1.40126e-05)
"vin" (1.00000 0.00000)
"V0:p" (-0.000999539 -1.51817e-05)
"freq" 1.44544e+10
"vo1" (0.000242271 -0.0110042)
"vo2" (-0.000121048 -5.33328e-06)
"vin" (1.00000 0.00000)
"V0:p" (-0.000999758 -1.10042e-05)
"freq" 1.99526e+10
"vo1" (0.000127197 -0.00797411)
"vo2" (-6.35742e-05 -2.02882e-06)
"vin" (1.00000 0.00000)
"V0:p" (-0.000999873 -7.97411e-06)
"freq" 2.75423e+10
"vo1" (6.67681e-05 -0.00577760)
"vo2" (-3.33773e-05 -7.71570e-07)
"vin" (1.00000 0.00000)
"V0:p" (-0.000999933 -5.77760e-06)
"freq" 3.80189e+10
"vo1" (3.50443e-05 -0.00418583)
"vo2" (-1.75203e-05 -2.93389e-07)
"vin" (1.00000 0.00000)
"V0:p" (-0.000999965 -4.18583e-06)
"freq" 5.24807e+10
"vo1" (1.83926e-05 -0.00303250)
"vo2" (-9.19578e-06 -1.11553e-07)
"vin" (1.00000 0.00000)
"V0:p" (-0.000999982 -3.03250e-06)
"freq" 7.24436e+10
"vo1" (9.65285e-06 -0.00219690)
"vo2" (-4.82629e-06 -4.24130e-08)
"vin" (1.00000 0.00000)
"V0:p" (-0.000999990 -2.19690e-06)
"freq" 1.00000e+11
"vo1" (5.06597e-06 -0.00159153)
"vo2" (-2.53295e-06 -1.61254e-08)
"vin" (1.00000 0.00000)
"V0:p" (-0.000999995 -1.59153e-06)
END
