HEADER
"PSFversion" "1.00"
"BINPSF creation time" "1484583176"
"simulator" "spectre"
"version" "15.1.0.644.isr13"
"date" "8:12:58 AM, Mon Jan 16, 2017"
"design" "// Generated for: spectre"
"analysis type" "dc"
"analysis name" "dc"
"analysis description" "DC Analysis `dc': vdc = (0 -> 1)"
"xVecSorted" "unsorted"
"tolerance.relative" 0.00100000
"reltol" 0.00100000
"abstol(V)" 1.00000e-06
"abstol(I)" 1.00000e-12
"temp" 27.0000
"tnom" 27.0000
"tempeffects" "all"
"gmindc" 1.00000e-12
TYPE
"sweep" FLOAT DOUBLE PROP(
"key" "sweep"
)
"LogicV" FLOAT DOUBLE PROP(
"key" "node"
)
"V" FLOAT DOUBLE PROP(
"units" "V"
"key" "node"
"tolerance" 1.00000e-06
)
"I" FLOAT DOUBLE PROP(
"units" "A"
"key" "branch"
"tolerance" 1.00000e-12
)
"MMF" FLOAT DOUBLE PROP(
"units" "A*turn"
"key" "node"
"tolerance" 1.00000e-12
)
"Wb" FLOAT DOUBLE PROP(
"units" "Wb"
"key" "node"
"tolerance" 1.00000e-09
)
"Temp" FLOAT DOUBLE PROP(
"units" "C"
"key" "node"
"tolerance" 0.000100000
)
"Pwr" FLOAT DOUBLE PROP(
"units" "W"
"key" "node"
"tolerance" 1.00000e-09
)
"U" FLOAT DOUBLE PROP(
"units" ""
"key" "node"
"tolerance" 1.00000e-06
)
"V/Sec" FLOAT DOUBLE PROP(
"units" "V/s"
"key" "node"
"tolerance" 0.000100000
)
"I/Sec" FLOAT DOUBLE PROP(
"units" "A/s"
"key" "node"
"tolerance" 1.00000e-06
)
"1/Sec" FLOAT DOUBLE PROP(
"units" "1/s"
"key" "node"
"tolerance" 0.000100000
)
"HOD" FLOAT DOUBLE PROP(
"units" ""
"key" "node"
"tolerance" 0.0100000
)
"Q" FLOAT DOUBLE PROP(
"units" "Coul"
"key" "node"
"tolerance" 1.00000e-15
)
SWEEP
"vdc" "sweep" PROP(
"sweep_direction" 0
"plot" 0
"grid" 1
)
TRACE
"vo1" "V"
"vo2" "V"
"vin" "V"
"V0:p" "I"
VALUE
"vdc" 0.00000
"vo1" 0.00000
"vo2" 0.00000
"vin" 0.00000
"V0:p" 0.00000
"vdc" 0.00578035
"vo1" 0.00385356
"vo2" 0.00192678
"vin" 0.00578035
"V0:p" -1.92678e-06
"vdc" 0.0115607
"vo1" 0.00770713
"vo2" 0.00385356
"vin" 0.0115607
"V0:p" -3.85356e-06
"vdc" 0.0173410
"vo1" 0.0115607
"vo2" 0.00578035
"vin" 0.0173410
"V0:p" -5.78035e-06
"vdc" 0.0231214
"vo1" 0.0154143
"vo2" 0.00770713
"vin" 0.0231214
"V0:p" -7.70713e-06
"vdc" 0.0289017
"vo1" 0.0192678
"vo2" 0.00963391
"vin" 0.0289017
"V0:p" -9.63391e-06
"vdc" 0.0346821
"vo1" 0.0231214
"vo2" 0.0115607
"vin" 0.0346821
"V0:p" -1.15607e-05
"vdc" 0.0404624
"vo1" 0.0269750
"vo2" 0.0134875
"vin" 0.0404624
"V0:p" -1.34875e-05
"vdc" 0.0462428
"vo1" 0.0308285
"vo2" 0.0154143
"vin" 0.0462428
"V0:p" -1.54143e-05
"vdc" 0.0520231
"vo1" 0.0346821
"vo2" 0.0173410
"vin" 0.0520231
"V0:p" -1.73410e-05
"vdc" 0.0578035
"vo1" 0.0385356
"vo2" 0.0192678
"vin" 0.0578035
"V0:p" -1.92678e-05
"vdc" 0.0635838
"vo1" 0.0423892
"vo2" 0.0211946
"vin" 0.0635838
"V0:p" -2.11946e-05
"vdc" 0.0693642
"vo1" 0.0462428
"vo2" 0.0231214
"vin" 0.0693642
"V0:p" -2.31214e-05
"vdc" 0.0751445
"vo1" 0.0500963
"vo2" 0.0250482
"vin" 0.0751445
"V0:p" -2.50482e-05
"vdc" 0.0809249
"vo1" 0.0539499
"vo2" 0.0269750
"vin" 0.0809249
"V0:p" -2.69750e-05
"vdc" 0.0867052
"vo1" 0.0578035
"vo2" 0.0289017
"vin" 0.0867052
"V0:p" -2.89017e-05
"vdc" 0.0924855
"vo1" 0.0616570
"vo2" 0.0308285
"vin" 0.0924855
"V0:p" -3.08285e-05
"vdc" 0.0982659
"vo1" 0.0655106
"vo2" 0.0327553
"vin" 0.0982659
"V0:p" -3.27553e-05
"vdc" 0.104046
"vo1" 0.0693642
"vo2" 0.0346821
"vin" 0.104046
"V0:p" -3.46821e-05
"vdc" 0.109827
"vo1" 0.0732177
"vo2" 0.0366089
"vin" 0.109827
"V0:p" -3.66089e-05
"vdc" 0.115607
"vo1" 0.0770713
"vo2" 0.0385356
"vin" 0.115607
"V0:p" -3.85356e-05
"vdc" 0.121387
"vo1" 0.0809249
"vo2" 0.0404624
"vin" 0.121387
"V0:p" -4.04624e-05
"vdc" 0.127168
"vo1" 0.0847784
"vo2" 0.0423892
"vin" 0.127168
"V0:p" -4.23892e-05
"vdc" 0.132948
"vo1" 0.0886320
"vo2" 0.0443160
"vin" 0.132948
"V0:p" -4.43160e-05
"vdc" 0.138728
"vo1" 0.0924855
"vo2" 0.0462428
"vin" 0.138728
"V0:p" -4.62428e-05
"vdc" 0.144509
"vo1" 0.0963391
"vo2" 0.0481696
"vin" 0.144509
"V0:p" -4.81696e-05
"vdc" 0.150289
"vo1" 0.100193
"vo2" 0.0500963
"vin" 0.150289
"V0:p" -5.00963e-05
"vdc" 0.156069
"vo1" 0.104046
"vo2" 0.0520231
"vin" 0.156069
"V0:p" -5.20231e-05
"vdc" 0.161850
"vo1" 0.107900
"vo2" 0.0539499
"vin" 0.161850
"V0:p" -5.39499e-05
"vdc" 0.167630
"vo1" 0.111753
"vo2" 0.0558767
"vin" 0.167630
"V0:p" -5.58767e-05
"vdc" 0.173410
"vo1" 0.115607
"vo2" 0.0578035
"vin" 0.173410
"V0:p" -5.78035e-05
"vdc" 0.179191
"vo1" 0.119461
"vo2" 0.0597303
"vin" 0.179191
"V0:p" -5.97303e-05
"vdc" 0.184971
"vo1" 0.123314
"vo2" 0.0616570
"vin" 0.184971
"V0:p" -6.16570e-05
"vdc" 0.190751
"vo1" 0.127168
"vo2" 0.0635838
"vin" 0.190751
"V0:p" -6.35838e-05
"vdc" 0.196532
"vo1" 0.131021
"vo2" 0.0655106
"vin" 0.196532
"V0:p" -6.55106e-05
"vdc" 0.202312
"vo1" 0.134875
"vo2" 0.0674374
"vin" 0.202312
"V0:p" -6.74374e-05
"vdc" 0.208092
"vo1" 0.138728
"vo2" 0.0693642
"vin" 0.208092
"V0:p" -6.93642e-05
"vdc" 0.213873
"vo1" 0.142582
"vo2" 0.0712909
"vin" 0.213873
"V0:p" -7.12909e-05
"vdc" 0.219653
"vo1" 0.146435
"vo2" 0.0732177
"vin" 0.219653
"V0:p" -7.32177e-05
"vdc" 0.225434
"vo1" 0.150289
"vo2" 0.0751445
"vin" 0.225434
"V0:p" -7.51445e-05
"vdc" 0.231214
"vo1" 0.154143
"vo2" 0.0770713
"vin" 0.231214
"V0:p" -7.70713e-05
"vdc" 0.236994
"vo1" 0.157996
"vo2" 0.0789981
"vin" 0.236994
"V0:p" -7.89981e-05
"vdc" 0.242775
"vo1" 0.161850
"vo2" 0.0809249
"vin" 0.242775
"V0:p" -8.09249e-05
"vdc" 0.248555
"vo1" 0.165703
"vo2" 0.0828516
"vin" 0.248555
"V0:p" -8.28516e-05
"vdc" 0.254335
"vo1" 0.169557
"vo2" 0.0847784
"vin" 0.254335
"V0:p" -8.47784e-05
"vdc" 0.260116
"vo1" 0.173410
"vo2" 0.0867052
"vin" 0.260116
"V0:p" -8.67052e-05
"vdc" 0.265896
"vo1" 0.177264
"vo2" 0.0886320
"vin" 0.265896
"V0:p" -8.86320e-05
"vdc" 0.271676
"vo1" 0.181118
"vo2" 0.0905588
"vin" 0.271676
"V0:p" -9.05588e-05
"vdc" 0.277457
"vo1" 0.184971
"vo2" 0.0924855
"vin" 0.277457
"V0:p" -9.24855e-05
"vdc" 0.283237
"vo1" 0.188825
"vo2" 0.0944123
"vin" 0.283237
"V0:p" -9.44123e-05
"vdc" 0.289017
"vo1" 0.192678
"vo2" 0.0963391
"vin" 0.289017
"V0:p" -9.63391e-05
"vdc" 0.294798
"vo1" 0.196532
"vo2" 0.0982659
"vin" 0.294798
"V0:p" -9.82659e-05
"vdc" 0.300578
"vo1" 0.200385
"vo2" 0.100193
"vin" 0.300578
"V0:p" -0.000100193
"vdc" 0.306358
"vo1" 0.204239
"vo2" 0.102119
"vin" 0.306358
"V0:p" -0.000102119
"vdc" 0.312139
"vo1" 0.208092
"vo2" 0.104046
"vin" 0.312139
"V0:p" -0.000104046
"vdc" 0.317919
"vo1" 0.211946
"vo2" 0.105973
"vin" 0.317919
"V0:p" -0.000105973
"vdc" 0.323699
"vo1" 0.215800
"vo2" 0.107900
"vin" 0.323699
"V0:p" -0.000107900
"vdc" 0.329480
"vo1" 0.219653
"vo2" 0.109827
"vin" 0.329480
"V0:p" -0.000109827
"vdc" 0.335260
"vo1" 0.223507
"vo2" 0.111753
"vin" 0.335260
"V0:p" -0.000111753
"vdc" 0.341040
"vo1" 0.227360
"vo2" 0.113680
"vin" 0.341040
"V0:p" -0.000113680
"vdc" 0.346821
"vo1" 0.231214
"vo2" 0.115607
"vin" 0.346821
"V0:p" -0.000115607
"vdc" 0.352601
"vo1" 0.235067
"vo2" 0.117534
"vin" 0.352601
"V0:p" -0.000117534
"vdc" 0.358382
"vo1" 0.238921
"vo2" 0.119461
"vin" 0.358382
"V0:p" -0.000119461
"vdc" 0.364162
"vo1" 0.242775
"vo2" 0.121387
"vin" 0.364162
"V0:p" -0.000121387
"vdc" 0.369942
"vo1" 0.246628
"vo2" 0.123314
"vin" 0.369942
"V0:p" -0.000123314
"vdc" 0.375723
"vo1" 0.250482
"vo2" 0.125241
"vin" 0.375723
"V0:p" -0.000125241
"vdc" 0.381503
"vo1" 0.254335
"vo2" 0.127168
"vin" 0.381503
"V0:p" -0.000127168
"vdc" 0.387283
"vo1" 0.258189
"vo2" 0.129094
"vin" 0.387283
"V0:p" -0.000129094
"vdc" 0.393064
"vo1" 0.262042
"vo2" 0.131021
"vin" 0.393064
"V0:p" -0.000131021
"vdc" 0.398844
"vo1" 0.265896
"vo2" 0.132948
"vin" 0.398844
"V0:p" -0.000132948
"vdc" 0.404624
"vo1" 0.269750
"vo2" 0.134875
"vin" 0.404624
"V0:p" -0.000134875
"vdc" 0.410405
"vo1" 0.273603
"vo2" 0.136802
"vin" 0.410405
"V0:p" -0.000136802
"vdc" 0.416185
"vo1" 0.277457
"vo2" 0.138728
"vin" 0.416185
"V0:p" -0.000138728
"vdc" 0.421965
"vo1" 0.281310
"vo2" 0.140655
"vin" 0.421965
"V0:p" -0.000140655
"vdc" 0.427746
"vo1" 0.285164
"vo2" 0.142582
"vin" 0.427746
"V0:p" -0.000142582
"vdc" 0.433526
"vo1" 0.289017
"vo2" 0.144509
"vin" 0.433526
"V0:p" -0.000144509
"vdc" 0.439306
"vo1" 0.292871
"vo2" 0.146435
"vin" 0.439306
"V0:p" -0.000146435
"vdc" 0.445087
"vo1" 0.296724
"vo2" 0.148362
"vin" 0.445087
"V0:p" -0.000148362
"vdc" 0.450867
"vo1" 0.300578
"vo2" 0.150289
"vin" 0.450867
"V0:p" -0.000150289
"vdc" 0.456647
"vo1" 0.304432
"vo2" 0.152216
"vin" 0.456647
"V0:p" -0.000152216
"vdc" 0.462428
"vo1" 0.308285
"vo2" 0.154143
"vin" 0.462428
"V0:p" -0.000154143
"vdc" 0.468208
"vo1" 0.312139
"vo2" 0.156069
"vin" 0.468208
"V0:p" -0.000156069
"vdc" 0.473988
"vo1" 0.315992
"vo2" 0.157996
"vin" 0.473988
"V0:p" -0.000157996
"vdc" 0.479769
"vo1" 0.319846
"vo2" 0.159923
"vin" 0.479769
"V0:p" -0.000159923
"vdc" 0.485549
"vo1" 0.323699
"vo2" 0.161850
"vin" 0.485549
"V0:p" -0.000161850
"vdc" 0.491329
"vo1" 0.327553
"vo2" 0.163776
"vin" 0.491329
"V0:p" -0.000163776
"vdc" 0.497110
"vo1" 0.331407
"vo2" 0.165703
"vin" 0.497110
"V0:p" -0.000165703
"vdc" 0.502890
"vo1" 0.335260
"vo2" 0.167630
"vin" 0.502890
"V0:p" -0.000167630
"vdc" 0.508671
"vo1" 0.339114
"vo2" 0.169557
"vin" 0.508671
"V0:p" -0.000169557
"vdc" 0.514451
"vo1" 0.342967
"vo2" 0.171484
"vin" 0.514451
"V0:p" -0.000171484
"vdc" 0.520231
"vo1" 0.346821
"vo2" 0.173410
"vin" 0.520231
"V0:p" -0.000173410
"vdc" 0.526012
"vo1" 0.350674
"vo2" 0.175337
"vin" 0.526012
"V0:p" -0.000175337
"vdc" 0.531792
"vo1" 0.354528
"vo2" 0.177264
"vin" 0.531792
"V0:p" -0.000177264
"vdc" 0.537572
"vo1" 0.358382
"vo2" 0.179191
"vin" 0.537572
"V0:p" -0.000179191
"vdc" 0.543353
"vo1" 0.362235
"vo2" 0.181118
"vin" 0.543353
"V0:p" -0.000181118
"vdc" 0.549133
"vo1" 0.366089
"vo2" 0.183044
"vin" 0.549133
"V0:p" -0.000183044
"vdc" 0.554913
"vo1" 0.369942
"vo2" 0.184971
"vin" 0.554913
"V0:p" -0.000184971
"vdc" 0.560694
"vo1" 0.373796
"vo2" 0.186898
"vin" 0.560694
"V0:p" -0.000186898
"vdc" 0.566474
"vo1" 0.377649
"vo2" 0.188825
"vin" 0.566474
"V0:p" -0.000188825
"vdc" 0.572254
"vo1" 0.381503
"vo2" 0.190751
"vin" 0.572254
"V0:p" -0.000190751
"vdc" 0.578035
"vo1" 0.385356
"vo2" 0.192678
"vin" 0.578035
"V0:p" -0.000192678
"vdc" 0.583815
"vo1" 0.389210
"vo2" 0.194605
"vin" 0.583815
"V0:p" -0.000194605
"vdc" 0.589595
"vo1" 0.393064
"vo2" 0.196532
"vin" 0.589595
"V0:p" -0.000196532
"vdc" 0.595376
"vo1" 0.396917
"vo2" 0.198459
"vin" 0.595376
"V0:p" -0.000198459
"vdc" 0.601156
"vo1" 0.400771
"vo2" 0.200385
"vin" 0.601156
"V0:p" -0.000200385
"vdc" 0.606936
"vo1" 0.404624
"vo2" 0.202312
"vin" 0.606936
"V0:p" -0.000202312
"vdc" 0.612717
"vo1" 0.408478
"vo2" 0.204239
"vin" 0.612717
"V0:p" -0.000204239
"vdc" 0.618497
"vo1" 0.412331
"vo2" 0.206166
"vin" 0.618497
"V0:p" -0.000206166
"vdc" 0.624277
"vo1" 0.416185
"vo2" 0.208092
"vin" 0.624277
"V0:p" -0.000208092
"vdc" 0.630058
"vo1" 0.420039
"vo2" 0.210019
"vin" 0.630058
"V0:p" -0.000210019
"vdc" 0.635838
"vo1" 0.423892
"vo2" 0.211946
"vin" 0.635838
"V0:p" -0.000211946
"vdc" 0.641618
"vo1" 0.427746
"vo2" 0.213873
"vin" 0.641618
"V0:p" -0.000213873
"vdc" 0.647399
"vo1" 0.431599
"vo2" 0.215800
"vin" 0.647399
"V0:p" -0.000215800
"vdc" 0.653179
"vo1" 0.435453
"vo2" 0.217726
"vin" 0.653179
"V0:p" -0.000217726
"vdc" 0.658960
"vo1" 0.439306
"vo2" 0.219653
"vin" 0.658960
"V0:p" -0.000219653
"vdc" 0.664740
"vo1" 0.443160
"vo2" 0.221580
"vin" 0.664740
"V0:p" -0.000221580
"vdc" 0.670520
"vo1" 0.447013
"vo2" 0.223507
"vin" 0.670520
"V0:p" -0.000223507
"vdc" 0.676301
"vo1" 0.450867
"vo2" 0.225434
"vin" 0.676301
"V0:p" -0.000225434
"vdc" 0.682081
"vo1" 0.454721
"vo2" 0.227360
"vin" 0.682081
"V0:p" -0.000227360
"vdc" 0.687861
"vo1" 0.458574
"vo2" 0.229287
"vin" 0.687861
"V0:p" -0.000229287
"vdc" 0.693642
"vo1" 0.462428
"vo2" 0.231214
"vin" 0.693642
"V0:p" -0.000231214
"vdc" 0.699422
"vo1" 0.466281
"vo2" 0.233141
"vin" 0.699422
"V0:p" -0.000233141
"vdc" 0.705202
"vo1" 0.470135
"vo2" 0.235067
"vin" 0.705202
"V0:p" -0.000235067
"vdc" 0.710983
"vo1" 0.473988
"vo2" 0.236994
"vin" 0.710983
"V0:p" -0.000236994
"vdc" 0.716763
"vo1" 0.477842
"vo2" 0.238921
"vin" 0.716763
"V0:p" -0.000238921
"vdc" 0.722543
"vo1" 0.481696
"vo2" 0.240848
"vin" 0.722543
"V0:p" -0.000240848
"vdc" 0.728324
"vo1" 0.485549
"vo2" 0.242775
"vin" 0.728324
"V0:p" -0.000242775
"vdc" 0.734104
"vo1" 0.489403
"vo2" 0.244701
"vin" 0.734104
"V0:p" -0.000244701
"vdc" 0.739884
"vo1" 0.493256
"vo2" 0.246628
"vin" 0.739884
"V0:p" -0.000246628
"vdc" 0.745665
"vo1" 0.497110
"vo2" 0.248555
"vin" 0.745665
"V0:p" -0.000248555
"vdc" 0.751445
"vo1" 0.500963
"vo2" 0.250482
"vin" 0.751445
"V0:p" -0.000250482
"vdc" 0.757225
"vo1" 0.504817
"vo2" 0.252408
"vin" 0.757225
"V0:p" -0.000252408
"vdc" 0.763006
"vo1" 0.508671
"vo2" 0.254335
"vin" 0.763006
"V0:p" -0.000254335
"vdc" 0.768786
"vo1" 0.512524
"vo2" 0.256262
"vin" 0.768786
"V0:p" -0.000256262
"vdc" 0.774566
"vo1" 0.516378
"vo2" 0.258189
"vin" 0.774566
"V0:p" -0.000258189
"vdc" 0.780347
"vo1" 0.520231
"vo2" 0.260116
"vin" 0.780347
"V0:p" -0.000260116
"vdc" 0.786127
"vo1" 0.524085
"vo2" 0.262042
"vin" 0.786127
"V0:p" -0.000262042
"vdc" 0.791908
"vo1" 0.527938
"vo2" 0.263969
"vin" 0.791908
"V0:p" -0.000263969
"vdc" 0.797688
"vo1" 0.531792
"vo2" 0.265896
"vin" 0.797688
"V0:p" -0.000265896
"vdc" 0.803468
"vo1" 0.535645
"vo2" 0.267823
"vin" 0.803468
"V0:p" -0.000267823
"vdc" 0.809249
"vo1" 0.539499
"vo2" 0.269750
"vin" 0.809249
"V0:p" -0.000269750
"vdc" 0.815029
"vo1" 0.543353
"vo2" 0.271676
"vin" 0.815029
"V0:p" -0.000271676
"vdc" 0.820809
"vo1" 0.547206
"vo2" 0.273603
"vin" 0.820809
"V0:p" -0.000273603
"vdc" 0.826590
"vo1" 0.551060
"vo2" 0.275530
"vin" 0.826590
"V0:p" -0.000275530
"vdc" 0.832370
"vo1" 0.554913
"vo2" 0.277457
"vin" 0.832370
"V0:p" -0.000277457
"vdc" 0.838150
"vo1" 0.558767
"vo2" 0.279383
"vin" 0.838150
"V0:p" -0.000279383
"vdc" 0.843931
"vo1" 0.562620
"vo2" 0.281310
"vin" 0.843931
"V0:p" -0.000281310
"vdc" 0.849711
"vo1" 0.566474
"vo2" 0.283237
"vin" 0.849711
"V0:p" -0.000283237
"vdc" 0.855491
"vo1" 0.570328
"vo2" 0.285164
"vin" 0.855491
"V0:p" -0.000285164
"vdc" 0.861272
"vo1" 0.574181
"vo2" 0.287091
"vin" 0.861272
"V0:p" -0.000287091
"vdc" 0.867052
"vo1" 0.578035
"vo2" 0.289017
"vin" 0.867052
"V0:p" -0.000289017
"vdc" 0.872832
"vo1" 0.581888
"vo2" 0.290944
"vin" 0.872832
"V0:p" -0.000290944
"vdc" 0.878613
"vo1" 0.585742
"vo2" 0.292871
"vin" 0.878613
"V0:p" -0.000292871
"vdc" 0.884393
"vo1" 0.589595
"vo2" 0.294798
"vin" 0.884393
"V0:p" -0.000294798
"vdc" 0.890173
"vo1" 0.593449
"vo2" 0.296724
"vin" 0.890173
"V0:p" -0.000296724
"vdc" 0.895954
"vo1" 0.597303
"vo2" 0.298651
"vin" 0.895954
"V0:p" -0.000298651
"vdc" 0.901734
"vo1" 0.601156
"vo2" 0.300578
"vin" 0.901734
"V0:p" -0.000300578
"vdc" 0.907514
"vo1" 0.605010
"vo2" 0.302505
"vin" 0.907514
"V0:p" -0.000302505
"vdc" 0.913295
"vo1" 0.608863
"vo2" 0.304432
"vin" 0.913295
"V0:p" -0.000304432
"vdc" 0.919075
"vo1" 0.612717
"vo2" 0.306358
"vin" 0.919075
"V0:p" -0.000306358
"vdc" 0.924855
"vo1" 0.616570
"vo2" 0.308285
"vin" 0.924855
"V0:p" -0.000308285
"vdc" 0.930636
"vo1" 0.620424
"vo2" 0.310212
"vin" 0.930636
"V0:p" -0.000310212
"vdc" 0.936416
"vo1" 0.624277
"vo2" 0.312139
"vin" 0.936416
"V0:p" -0.000312139
"vdc" 0.942197
"vo1" 0.628131
"vo2" 0.314066
"vin" 0.942197
"V0:p" -0.000314066
"vdc" 0.947977
"vo1" 0.631985
"vo2" 0.315992
"vin" 0.947977
"V0:p" -0.000315992
"vdc" 0.953757
"vo1" 0.635838
"vo2" 0.317919
"vin" 0.953757
"V0:p" -0.000317919
"vdc" 0.959538
"vo1" 0.639692
"vo2" 0.319846
"vin" 0.959538
"V0:p" -0.000319846
"vdc" 0.965318
"vo1" 0.643545
"vo2" 0.321773
"vin" 0.965318
"V0:p" -0.000321773
"vdc" 0.971098
"vo1" 0.647399
"vo2" 0.323699
"vin" 0.971098
"V0:p" -0.000323699
"vdc" 0.976879
"vo1" 0.651252
"vo2" 0.325626
"vin" 0.976879
"V0:p" -0.000325626
"vdc" 0.982659
"vo1" 0.655106
"vo2" 0.327553
"vin" 0.982659
"V0:p" -0.000327553
"vdc" 0.988439
"vo1" 0.658960
"vo2" 0.329480
"vin" 0.988439
"V0:p" -0.000329480
"vdc" 0.994220
"vo1" 0.662813
"vo2" 0.331407
"vin" 0.994220
"V0:p" -0.000331407
"vdc" 1.00000
"vo1" 0.666667
"vo2" 0.333333
"vin" 1.00000
"V0:p" -0.000333333
END
