HEADER
"PSFversion" "1.00"
"BINPSF creation time" "1484204575"
"simulator" "spectre"
"version" "15.1.0.644.isr13"
"date" "11:02:57 PM, Wed Jan 11, 2017"
"design" "// Generated for: spectre"
"analysis type" "ac"
"analysis name" "ac"
"analysis description" "AC Analysis `ac': freq = (10 kHz -> 100 GHz)"
"xVecSorted" "ascending"
"tolerance.relative" 0.00100000
"start" 10000.0
"stop" 1.00000e+11
"operating point producer" "ac"
TYPE
"sweep" FLOAT DOUBLE PROP(
"key" "sweep"
)
"V" COMPLEX DOUBLE PROP(
"units" "V"
"key" "node"
"tolerance" 1.00000e-06
)
"I" COMPLEX DOUBLE PROP(
"units" "A"
"key" "branch"
"tolerance" 1.00000e-12
)
"MMF" COMPLEX DOUBLE PROP(
"units" "A*turn"
"key" "node"
"tolerance" 1.00000e-12
)
"Wb" COMPLEX DOUBLE PROP(
"units" "Wb"
"key" "node"
"tolerance" 1.00000e-09
)
"Temp" COMPLEX DOUBLE PROP(
"units" "C"
"key" "node"
"tolerance" 0.000100000
)
"Pwr" COMPLEX DOUBLE PROP(
"units" "W"
"key" "node"
"tolerance" 1.00000e-09
)
"U" COMPLEX DOUBLE PROP(
"units" ""
"key" "node"
"tolerance" 1.00000e-06
)
"V/Sec" COMPLEX DOUBLE PROP(
"units" "V/s"
"key" "node"
"tolerance" 0.000100000
)
"I/Sec" COMPLEX DOUBLE PROP(
"units" "A/s"
"key" "node"
"tolerance" 1.00000e-06
)
"1/Sec" COMPLEX DOUBLE PROP(
"units" "1/s"
"key" "node"
"tolerance" 0.000100000
)
"HOD" COMPLEX DOUBLE PROP(
"units" ""
"key" "node"
"tolerance" 0.0100000
)
"Q" COMPLEX DOUBLE PROP(
"units" "Coul"
"key" "node"
"tolerance" 1.00000e-15
)
SWEEP
"freq" "sweep" PROP(
"sweep_direction" 0
"units" "Hz"
"plot" 0
"grid" 3
)
TRACE
"vo1" "V"
"vo2" "V"
"vin" "V"
"V0:p" "I"
VALUE
"freq" 10000.0
"vo1" (0.666667 -1.74533e-05)
"vo2" (0.333333 -1.39626e-05)
"vin" (1.00000 0.00000)
"V0:p" (-0.000666667 -3.49066e-08)
"freq" 13803.8
"vo1" (0.666667 -2.40923e-05)
"vo2" (0.333333 -1.92738e-05)
"vin" (1.00000 0.00000)
"V0:p" (-0.000666667 -4.81845e-08)
"freq" 19054.6
"vo1" (0.666667 -3.32566e-05)
"vo2" (0.333333 -2.66053e-05)
"vin" (1.00000 0.00000)
"V0:p" (-0.000666667 -6.65131e-08)
"freq" 26302.7
"vo1" (0.666667 -4.59068e-05)
"vo2" (0.333333 -3.67255e-05)
"vin" (1.00000 0.00000)
"V0:p" (-0.000666667 -9.18137e-08)
"freq" 36307.8
"vo1" (0.666667 -6.33691e-05)
"vo2" (0.333333 -5.06953e-05)
"vin" (1.00000 0.00000)
"V0:p" (-0.000666667 -1.26738e-07)
"freq" 50118.7
"vo1" (0.666667 -8.74737e-05)
"vo2" (0.333333 -6.99789e-05)
"vin" (1.00000 0.00000)
"V0:p" (-0.000666667 -1.74947e-07)
"freq" 69183.1
"vo1" (0.666667 -0.000120747)
"vo2" (0.333333 -9.65978e-05)
"vin" (1.00000 0.00000)
"V0:p" (-0.000666667 -2.41495e-07)
"freq" 95499.3
"vo1" (0.666667 -0.000166678)
"vo2" (0.333333 -0.000133342)
"vin" (1.00000 0.00000)
"V0:p" (-0.000666667 -3.33355e-07)
"freq" 131826.
"vo1" (0.666667 -0.000230079)
"vo2" (0.333333 -0.000184063)
"vin" (1.00000 0.00000)
"V0:p" (-0.000666667 -4.60158e-07)
"freq" 181970.
"vo1" (0.666666 -0.000317598)
"vo2" (0.333333 -0.000254078)
"vin" (1.00000 0.00000)
"V0:p" (-0.000666667 -6.35195e-07)
"freq" 251189.
"vo1" (0.666666 -0.000438407)
"vo2" (0.333333 -0.000350725)
"vin" (1.00000 0.00000)
"V0:p" (-0.000666667 -8.76813e-07)
"freq" 346737.
"vo1" (0.666666 -0.000605169)
"vo2" (0.333333 -0.000484135)
"vin" (1.00000 0.00000)
"V0:p" (-0.000666668 -1.21034e-06)
"freq" 478630.
"vo1" (0.666665 -0.000835365)
"vo2" (0.333332 -0.000668292)
"vin" (1.00000 0.00000)
"V0:p" (-0.000666669 -1.67073e-06)
"freq" 660693.
"vo1" (0.666664 -0.00115312)
"vo2" (0.333331 -0.000922498)
"vin" (1.00000 0.00000)
"V0:p" (-0.000666671 -2.30625e-06)
"freq" 912011.
"vo1" (0.666662 -0.00159175)
"vo2" (0.333329 -0.00127340)
"vin" (1.00000 0.00000)
"V0:p" (-0.000666675 -3.18349e-06)
"freq" 1.25893e+06
"vo1" (0.666659 -0.00219721)
"vo2" (0.333326 -0.00175776)
"vin" (1.00000 0.00000)
"V0:p" (-0.000666683 -4.39442e-06)
"freq" 1.73780e+06
"vo1" (0.666651 -0.00303295)
"vo2" (0.333319 -0.00242635)
"vin" (1.00000 0.00000)
"V0:p" (-0.000666698 -6.06590e-06)
"freq" 2.39883e+06
"vo1" (0.666637 -0.00418654)
"vo2" (0.333306 -0.00334919)
"vin" (1.00000 0.00000)
"V0:p" (-0.000666726 -8.37307e-06)
"freq" 3.31131e+06
"vo1" (0.666611 -0.00577876)
"vo2" (0.333281 -0.00462291)
"vin" (1.00000 0.00000)
"V0:p" (-0.000666779 -1.15575e-05)
"freq" 4.57088e+06
"vo1" (0.666560 -0.00797620)
"vo2" (0.333234 -0.00638069)
"vin" (1.00000 0.00000)
"V0:p" (-0.000666880 -1.59524e-05)
"freq" 6.30957e+06
"vo1" (0.666463 -0.0110083)
"vo2" (0.333144 -0.00880598)
"vin" (1.00000 0.00000)
"V0:p" (-0.000667074 -2.20167e-05)
"freq" 8.70964e+06
"vo1" (0.666279 -0.0151908)
"vo2" (0.332973 -0.0121508)
"vin" (1.00000 0.00000)
"V0:p" (-0.000667443 -3.03816e-05)
"freq" 1.20226e+07
"vo1" (0.665928 -0.0209562)
"vo2" (0.332647 -0.0167602)
"vin" (1.00000 0.00000)
"V0:p" (-0.000668144 -4.19125e-05)
"freq" 1.65959e+07
"vo1" (0.665261 -0.0288937)
"vo2" (0.332028 -0.0231024)
"vin" (1.00000 0.00000)
"V0:p" (-0.000669478 -5.77874e-05)
"freq" 2.29087e+07
"vo1" (0.663994 -0.0397955)
"vo2" (0.330853 -0.0318034)
"vin" (1.00000 0.00000)
"V0:p" (-0.000672011 -7.95909e-05)
"freq" 3.16228e+07
"vo1" (0.661598 -0.0547007)
"vo2" (0.328629 -0.0436743)
"vin" (1.00000 0.00000)
"V0:p" (-0.000676805 -0.000109401)
"freq" 4.36516e+07
"vo1" (0.657090 -0.0749048)
"vo2" (0.324451 -0.0596993)
"vin" (1.00000 0.00000)
"V0:p" (-0.000685821 -0.000149810)
"freq" 6.02560e+07
"vo1" (0.648708 -0.101850)
"vo2" (0.316697 -0.0809005)
"vin" (1.00000 0.00000)
"V0:p" (-0.000702583 -0.000203701)
"freq" 8.31764e+07
"vo1" (0.633453 -0.136710)
"vo2" (0.302630 -0.107895)
"vin" (1.00000 0.00000)
"V0:p" (-0.000733093 -0.000273420)
"freq" 1.14815e+08
"vo1" (0.606728 -0.179342)
"vo2" (0.278144 -0.139835)
"vin" (1.00000 0.00000)
"V0:p" (-0.000786545 -0.000358683)
"freq" 1.58489e+08
"vo1" (0.562868 -0.226417)
"vo2" (0.238470 -0.172577)
"vin" (1.00000 0.00000)
"V0:p" (-0.000874265 -0.000452833)
"freq" 2.18776e+08
"vo1" (0.497939 -0.269678)
"vo2" (0.181229 -0.197119)
"vin" (1.00000 0.00000)
"V0:p" (-0.00100412 -0.000539355)
"freq" 3.01995e+08
"vo1" (0.414655 -0.297570)
"vo2" (0.111628 -0.201738)
"vin" (1.00000 0.00000)
"V0:p" (-0.00117069 -0.000595140)
"freq" 4.16869e+08
"vo1" (0.324141 -0.302284)
"vo2" (0.0441637 -0.180061)
"vin" (1.00000 0.00000)
"V0:p" (-0.00135172 -0.000604567)
"freq" 5.75440e+08
"vo1" (0.239415 -0.285457)
"vo2" (-0.00512076 -0.138100)
"vin" (1.00000 0.00000)
"V0:p" (-0.00152117 -0.000570914)
"freq" 7.94328e+08
"vo1" (0.167689 -0.254581)
"vo2" (-0.0293252 -0.0907008)
"vin" (1.00000 0.00000)
"V0:p" (-0.00166462 -0.000509162)
"freq" 1.09648e+09
"vo1" (0.110750 -0.216413)
"vo2" (-0.0330252 -0.0513256)
"vin" (1.00000 0.00000)
"V0:p" (-0.00177850 -0.000432825)
"freq" 1.51356e+09
"vo1" (0.0686309 -0.175912)
"vo2" (-0.0262759 -0.0254854)
"vin" (1.00000 0.00000)
"V0:p" (-0.00186274 -0.000351825)
"freq" 2.08930e+09
"vo1" (0.0401429 -0.137461)
"vo2" (-0.0174581 -0.0114355)
"vin" (1.00000 0.00000)
"V0:p" (-0.00191971 -0.000274922)
"freq" 2.88403e+09
"vo1" (0.0224843 -0.104253)
"vo2" (-0.0104495 -0.00478820)
"vin" (1.00000 0.00000)
"V0:p" (-0.00195503 -0.000208507)
"freq" 3.98107e+09
"vo1" (0.0122438 -0.0775268)
"vo2" (-0.00589152 -0.00192109)
"vin" (1.00000 0.00000)
"V0:p" (-0.00197551 -0.000155054)
"freq" 5.49541e+09
"vo1" (0.00655700 -0.0569772)
"vo2" (-0.00321316 -0.000752032)
"vin" (1.00000 0.00000)
"V0:p" (-0.00198689 -0.000113954)
"freq" 7.58578e+09
"vo1" (0.00347877 -0.0415972)
"vo2" (-0.00172111 -0.000290414)
"vin" (1.00000 0.00000)
"V0:p" (-0.00199304 -8.31945e-05)
"freq" 1.04713e+10
"vo1" (0.00183626 -0.0302590)
"vo2" (-0.000913054 -0.000111330)
"vin" (1.00000 0.00000)
"V0:p" (-0.00199633 -6.05179e-05)
"freq" 1.44544e+10
"vo1" (0.000966629 -0.0219685)
"vo2" (-0.000481910 -4.25117e-05)
"vin" (1.00000 0.00000)
"V0:p" (-0.00199807 -4.39370e-05)
"freq" 1.99526e+10
"vo1" (0.000508110 -0.0159330)
"vo2" (-0.000253667 -1.61997e-05)
"vin" (1.00000 0.00000)
"V0:p" (-0.00199898 -3.18661e-05)
"freq" 2.75423e+10
"vo1" (0.000266885 -0.0115494)
"vo2" (-0.000133336 -6.16638e-06)
"vin" (1.00000 0.00000)
"V0:p" (-0.00199947 -2.30988e-05)
"freq" 3.80189e+10
"vo1" (0.000140126 -0.00836947)
"vo2" (-7.00333e-05 -2.34588e-06)
"vin" (1.00000 0.00000)
"V0:p" (-0.00199972 -1.67389e-05)
"freq" 5.24807e+10
"vo1" (7.35561e-05 -0.00606415)
"vo2" (-3.67699e-05 -8.92176e-07)
"vin" (1.00000 0.00000)
"V0:p" (-0.00199985 -1.21283e-05)
"freq" 7.24436e+10
"vo1" (3.86075e-05 -0.00439348)
"vo2" (-1.93015e-05 -3.39255e-07)
"vin" (1.00000 0.00000)
"V0:p" (-0.00199992 -8.78695e-06)
"freq" 1.00000e+11
"vo1" (2.02628e-05 -0.00318294)
"vo2" (-1.01308e-05 -1.28993e-07)
"vin" (1.00000 0.00000)
"V0:p" (-0.00199996 -6.36588e-06)
END
